
T2788 000:604 SEGGER J-Link V4.90 Log File (0001ms, 0270ms total)
T2788 000:604 DLL Compiled: Jul 28 2014 10:35:20 (0001ms, 0270ms total)
T2788 000:604 Logging started @ 2016-05-19 12:21 (0001ms, 0270ms total)
T2788 000:605 JLINK_SetWarnOutHandler(...) (0000ms, 0270ms total)
T2788 000:605 JLINK_OpenEx(...)
Firmware: J-Link ARM V8 compiled Nov 28 2014 13:44:46
Hardware: V8.00
S/N: 799713843
Feature(s): RDI,FlashDL,FlashBP,JFlash,GDBFULL  returns O.K. (0267ms, 0537ms total)
T2788 000:872 JLINK_SetErrorOutHandler(...) (0000ms, 0537ms total)
T2788 000:872 JLINK_ExecCommand("ProjectFile = "C:\Users\lenovo\Desktop\»úÐµ±ÛALLOK\Project\uv4\JLinkSettings.ini"", ...)  returns 0x00 (0002ms, 0539ms total)
T2788 000:882 JLINK_ExecCommand("Device = STM32F103RC", ...)Device "STM32F103RC" selected (256 KB flash, 48 KB RAM).  returns 0x00 (0013ms, 0552ms total)
T2788 000:895 JLINK_ExecCommand("DisableConnectionTimeout", ...)  returns 0x01 (0000ms, 0552ms total)
T2788 000:895 JLINK_GetHardwareVersion()  returns 0x13880 (0000ms, 0552ms total)
T2788 000:895 JLINK_GetDLLVersion()  returns 49000 (0000ms, 0552ms total)
T2788 000:895 JLINK_GetFirmwareString(...) (0000ms, 0552ms total)
T2788 000:922 JLINK_GetDLLVersion()  returns 49000 (0000ms, 0552ms total)
T2788 000:922 JLINK_GetCompileDateTime() (0000ms, 0552ms total)
T2788 000:928 JLINK_GetFirmwareString(...) (0000ms, 0552ms total)
T2788 000:932 JLINK_GetHardwareVersion()  returns 0x13880 (0001ms, 0553ms total)
T2788 000:955 JLINK_TIF_Select(JLINKARM_TIF_SWD)  returns 0x00 (0001ms, 0554ms total)
T2788 000:956 JLINK_SetSpeed(20000) (0001ms, 0555ms total)
T2788 000:957 JLINK_GetId() >0x108 TIF>Found SWD-DP with ID 0x1BA01477 >0x0D TIF> >0x28 TIF> >0x0D TIF> >0x28 TIF> >0x0D TIF> >0x21 TIF> >0x0D TIF> >0x28 TIF> >0x0D TIF> >0x28 TIF> >0x0D TIF> >0x28 TIF> >0x0D TIF> >0x21 TIF> >0x0D TIF> >0x21 TIF> >0x0D TIF> >0x28 TIF> >0x0D TIF> >0x21 TIF> >0x0D TIF> >0x21 TIF> >0x0D TIF> >0x28 TIF> >0x0D TIF> >0x28 TIF> >0x108 TIF>Found SWD-DP with ID 0x1BA01477 >0x0D TIF> >0x21 TIF> >0x0D TIF> >0x28 TIF> >0x0D TIF> >0x28 TIF> >0x0D TIF> >0x21 TIF> >0x0D TIF> >0x28 TIF>
 >0x0D TIF> >0x21 TIF> >0x0D TIF> >0x21 TIF> >0x0D TIF> >0x21 TIF> >0x0D TIF> >0x21 TIF> >0x0D TIF> >0x28 TIF> >0x0D TIF> >0x28 TIF> >0x0D TIF> >0x21 TIF> >0x0D TIF> >0x28 TIF> >0x0D TIF> >0x28 TIF> >0x0D TIF> >0x28 TIF> >0x0D TIF> >0x21 TIF> >0x0D TIF> >0x21 TIF> >0x0D TIF> >0x28 TIF> >0x0D TIF> >0x21 TIF> >0x0D TIF> >0x21 TIF>Found Cortex-M3 r1p1, Little endian. -- CPU_WriteMem(4 bytes @ 0xE0002000) -- CPU_ReadMem(4 bytes @ 0xE000EDF0) -- CPU_WriteMem(4 bytes @ 0xE000EDF0)
 -- CPU_ReadMem(4 bytes @ 0xE0002000)FPUnit: 6 code (BP) slots and 2 literal slots -- CPU_ReadMem(4 bytes @ 0xE000EDFC) -- CPU_WriteMem(4 bytes @ 0xE000EDFC) -- CPU_ReadMem(4 bytes @ 0xE0001000) -- CPU_WriteMem(4 bytes @ 0xE0001000) -- CPU_ReadMem(4 bytes @ 0xE00FF010)TPIU fitted. -- CPU_ReadMem(4 bytes @ 0xE00FF014)ETM fitted. -- CPU_ReadMem(4 bytes @ 0xE00FF018) >0x0D TIF> >0x21 TIF>  returns 0x1BA01477 (0072ms, 0627ms total)
T2788 001:029 JLINK_GetDLLVersion()  returns 49000 (0000ms, 0627ms total)
T2788 001:029 JLINK_CORE_GetFound()  returns 0x30000FF (0000ms, 0627ms total)
T2788 001:034 JLINK_ReadMem (0xE00FF000, 0x0020 Bytes, ...) -- CPU is running -- CPU_ReadMem(32 bytes @ 0xE00FF000) - Data: 03 F0 F0 FF 03 20 F0 FF 03 30 F0 FF 03 10 F0 FF ...  returns 0x00 (0001ms, 0628ms total)
T2788 001:035 JLINK_ReadMem (0xE000EFF0, 0x0010 Bytes, ...) -- CPU is running -- CPU_ReadMem(16 bytes @ 0xE000EFF0) - Data: 0D 00 00 00 E0 00 00 00 05 00 00 00 B1 00 00 00  returns 0x00 (0001ms, 0629ms total)
T2788 001:036 JLINK_ReadMem (0xE000EFD0, 0x0020 Bytes, ...) -- CPU is running -- CPU_ReadMem(32 bytes @ 0xE000EFD0) - Data: 04 00 00 00 00 00 00 00 00 00 00 00 00 00 00 00 ...  returns 0x00 (0001ms, 0630ms total)
T2788 001:037 JLINK_ReadMem (0xE0001FF0, 0x0010 Bytes, ...) -- CPU is running -- CPU_ReadMem(16 bytes @ 0xE0001FF0) - Data: 0D 00 00 00 E0 00 00 00 05 00 00 00 B1 00 00 00  returns 0x00 (0001ms, 0631ms total)
T2788 001:038 JLINK_ReadMem (0xE0001FD0, 0x0020 Bytes, ...) -- CPU is running -- CPU_ReadMem(32 bytes @ 0xE0001FD0) - Data: 04 00 00 00 00 00 00 00 00 00 00 00 00 00 00 00 ...  returns 0x00 (0001ms, 0632ms total)
T2788 001:039 JLINK_ReadMem (0xE0002FF0, 0x0010 Bytes, ...) -- CPU is running -- CPU_ReadMem(16 bytes @ 0xE0002FF0) - Data: 0D 00 00 00 E0 00 00 00 05 00 00 00 B1 00 00 00  returns 0x00 (0001ms, 0633ms total)
T2788 001:040 JLINK_ReadMem (0xE0002FD0, 0x0020 Bytes, ...) -- CPU is running -- CPU_ReadMem(32 bytes @ 0xE0002FD0) - Data: 04 00 00 00 00 00 00 00 00 00 00 00 00 00 00 00 ...  returns 0x00 (0001ms, 0634ms total)
T2788 001:041 JLINK_ReadMem (0xE0000FF0, 0x0010 Bytes, ...) -- CPU is running -- CPU_ReadMem(16 bytes @ 0xE0000FF0) - Data: 0D 00 00 00 E0 00 00 00 05 00 00 00 B1 00 00 00  returns 0x00 (0002ms, 0636ms total)
T2788 001:043 JLINK_ReadMem (0xE0000FD0, 0x0020 Bytes, ...) -- CPU is running -- CPU_ReadMem(32 bytes @ 0xE0000FD0) - Data: 04 00 00 00 00 00 00 00 00 00 00 00 00 00 00 00 ...  returns 0x00 (0001ms, 0637ms total)
T2788 001:044 JLINK_ReadMem (0xE0040FF0, 0x0010 Bytes, ...) -- CPU is running -- CPU_ReadMem(16 bytes @ 0xE0040FF0) - Data: 0D 00 00 00 90 00 00 00 05 00 00 00 B1 00 00 00  returns 0x00 (0001ms, 0638ms total)
T2788 001:045 JLINK_ReadMem (0xE0040FD0, 0x0020 Bytes, ...) -- CPU is running -- CPU_ReadMem(32 bytes @ 0xE0040FD0) - Data: 04 00 00 00 00 00 00 00 00 00 00 00 00 00 00 00 ...  returns 0x00 (0001ms, 0639ms total)
T2788 001:046 JLINK_ReadMem (0xE0041FF0, 0x0010 Bytes, ...) -- CPU is running -- CPU_ReadMem(16 bytes @ 0xE0041FF0) - Data: 0D 00 00 00 90 00 00 00 05 00 00 00 B1 00 00 00  returns 0x00 (0001ms, 0640ms total)
T2788 001:047 JLINK_ReadMem (0xE0041FD0, 0x0020 Bytes, ...) -- CPU is running -- CPU_ReadMem(32 bytes @ 0xE0041FD0) - Data: 04 00 00 00 00 00 00 00 00 00 00 00 00 00 00 00 ...  returns 0x00 (0001ms, 0641ms total)
T2788 001:048 JLINK_ReadMemU32(0xE000ED00, 0x0001 Items, ...) -- CPU is running -- CPU_ReadMem(4 bytes @ 0xE000ED00) - Data: 31 C2 1F 41  returns 0x01 (0001ms, 0642ms total)
T2788 001:049 JLINK_SetResetType(JLINKARM_RESET_TYPE_NORMAL)  returns JLINKARM_RESET_TYPE_NORMAL (0000ms, 0642ms total)
T2788 001:049 JLINK_Reset() -- CPU is running -- CPU_WriteMem(4 bytes @ 0xE000EDF0) -- CPU is running -- CPU_WriteMem(4 bytes @ 0xE000EDFC) >0x35 TIF> -- CPU is running -- CPU_WriteMem(4 bytes @ 0xE000ED0C) -- CPU is running -- CPU_ReadMem(4 bytes @ 0xE000EDF0) -- CPU is running -- CPU_ReadMem(4 bytes @ 0xE000EDF0) -- CPU is running -- CPU_WriteMem(4 bytes @ 0xE000EDF0) -- CPU is running -- CPU_WriteMem(4 bytes @ 0xE000EDFC) -- CPU is running -- CPU_ReadMem(4 bytes @ 0xE000EDF0)
 -- CPU_WriteMem(4 bytes @ 0xE0002000) -- CPU_ReadMem(4 bytes @ 0xE000EDFC) -- CPU_ReadMem(4 bytes @ 0xE0001000) (0022ms, 0664ms total)
T2788 001:071 JLINK_Halt()  returns 0x00 (0000ms, 0664ms total)
T2788 001:071 JLINK_IsHalted()  returns TRUE (0001ms, 0665ms total)
T2788 001:072 JLINK_ReadMemU32(0xE000EDF0, 0x0001 Items, ...) -- CPU_ReadMem(4 bytes @ 0xE000EDF0) - Data: 03 00 03 00  returns 0x01 (0000ms, 0664ms total)
T2788 001:072 JLINK_WriteU32(0xE000EDF0, 0xA05F0003) -- CPU_WriteMem(4 bytes @ 0xE000EDF0)  returns 0x00 (0001ms, 0665ms total)
T2788 001:073 JLINK_WriteU32(0xE000EDFC, 0x01000000) -- CPU_WriteMem(4 bytes @ 0xE000EDFC)  returns 0x00 (0001ms, 0666ms total)
T2788 001:092 JLINK_GetHWStatus(...)  returns 0x00 (0001ms, 0667ms total)
T2788 001:106 JLINK_GetNumBPUnits(Type = 0xFFFFFF00)  returns 0x06 (0000ms, 0667ms total)
T2788 001:106 JLINK_GetNumBPUnits(Type = 0xF0)  returns 0x2000 (0000ms, 0667ms total)
T2788 001:106 JLINK_GetNumWPUnits()  returns 0x04 (0000ms, 0667ms total)
T2788 001:120 JLINK_GetSpeed()  returns 0xFA0 (0000ms, 0667ms total)
T2788 001:129 JLINK_ReadMemU32(0xE000E004, 0x0001 Items, ...) -- CPU_ReadMem(4 bytes @ 0xE000E004) - Data: 01 00 00 00  returns 0x01 (0002ms, 0669ms total)
T2788 001:131 JLINK_ReadMemU32(0xE000E004, 0x0001 Items, ...) -- CPU_ReadMem(4 bytes @ 0xE000E004) - Data: 01 00 00 00  returns 0x01 (0000ms, 0669ms total)
T2788 001:131 JLINK_WriteMem(0xE0001000, 0x001C Bytes, ...) - Data: 01 00 00 00 00 00 00 00 00 00 00 00 00 00 00 00 ... -- CPU_WriteMem(28 bytes @ 0xE0001000)  returns 0x1C (0002ms, 0671ms total)
T2788 001:133 JLINK_ReadMem (0xE0001000, 0x001C Bytes, ...) -- CPU_ReadMem(28 bytes @ 0xE0001000) - Data: 01 00 00 40 00 00 00 00 00 00 00 00 00 00 00 00 ...  returns 0x00 (0001ms, 0672ms total)
T2788 001:134 JLINK_Halt()  returns 0x00 (0000ms, 0672ms total)
T2788 001:134 JLINK_IsHalted()  returns TRUE (0000ms, 0672ms total)
T2788 001:140 JLINK_WriteMem(0x20000000, 0x0164 Bytes, ...) - Data: 00 BE 0A E0 0D 78 2D 06 68 40 08 24 40 00 00 D3 ... -- CPU_WriteMem(356 bytes @ 0x20000000)  returns 0x164 (0003ms, 0675ms total)
T2788 001:143 JLINK_WriteReg(R0, 0x08000000)  returns 0x00 (0000ms, 0675ms total)
T2788 001:143 JLINK_WriteReg(R1, 0x00B71B00)  returns 0x00 (0000ms, 0675ms total)
T2788 001:143 JLINK_WriteReg(R2, 0x00000001)  returns 0x00 (0000ms, 0675ms total)
T2788 001:143 JLINK_WriteReg(R3, 0x00000000)  returns 0x00 (0000ms, 0675ms total)
T2788 001:143 JLINK_WriteReg(R4, 0x00000000)  returns 0x00 (0000ms, 0675ms total)
T2788 001:143 JLINK_WriteReg(R5, 0x00000000)  returns 0x00 (0000ms, 0675ms total)
T2788 001:144 JLINK_WriteReg(R6, 0x00000000)  returns 0x00 (0000ms, 0676ms total)
T2788 001:144 JLINK_WriteReg(R7, 0x00000000)  returns 0x00 (0000ms, 0676ms total)
T2788 001:144 JLINK_WriteReg(R8, 0x00000000)  returns 0x00 (0000ms, 0676ms total)
T2788 001:144 JLINK_WriteReg(R9, 0x20000160)  returns 0x00 (0000ms, 0676ms total)
T2788 001:144 JLINK_WriteReg(R10, 0x00000000)  returns 0x00 (0000ms, 0676ms total)
T2788 001:144 JLINK_WriteReg(R11, 0x00000000)  returns 0x00 (0000ms, 0676ms total)
T2788 001:144 JLINK_WriteReg(R12, 0x00000000)  returns 0x00 (0000ms, 0676ms total)
T2788 001:144 JLINK_WriteReg(R13 (SP), 0x20000800)  returns 0x00 (0000ms, 0676ms total)
T2788 001:144 JLINK_WriteReg(R14, 0x20000001)  returns 0x00 (0000ms, 0676ms total)
T2788 001:144 JLINK_WriteReg(R15 (PC), 0x20000038)  returns 0x00 (0000ms, 0676ms total)
T2788 001:144 JLINK_WriteReg(XPSR, 0x01000000)  returns 0x00 (0000ms, 0676ms total)
T2788 001:144 JLINK_WriteReg(MSP, 0x20000800)  returns 0x00 (0000ms, 0676ms total)
T2788 001:144 JLINK_WriteReg(PSP, 0x20000800)  returns 0x00 (0000ms, 0676ms total)
T2788 001:144 JLINK_WriteReg(CFBP, 0x00000000)  returns 0x00 (0001ms, 0677ms total)
T2788 001:145 JLINK_SetBPEx(Addr = 0x20000000, Type = 0xFFFFFFF2) -- CPU_ReadMem(2 bytes @ 0x20000000)  returns 0x00000001 (0000ms, 0677ms total)
T2788 001:145 JLINK_Go() -- CPU_WriteMem(2 bytes @ 0x20000000) -- CPU_WriteMem(4 bytes @ 0xE0002008) -- CPU_WriteMem(4 bytes @ 0xE000200C) -- CPU_WriteMem(4 bytes @ 0xE0002010) -- CPU_WriteMem(4 bytes @ 0xE0002014) -- CPU_WriteMem(4 bytes @ 0xE0002018) -- CPU_WriteMem(4 bytes @ 0xE000201C) -- CPU_WriteMem(4 bytes @ 0xE0001004) (0009ms, 0686ms total)
T2788 001:154 JLINK_IsHalted() -- CPU_ReadMem(2 bytes @ 0x20000000)  returns TRUE (0004ms, 0690ms total)
T2788 001:158 JLINK_ReadReg(R15 (PC))  returns 0x20000000 (0000ms, 0686ms total)
T2788 001:158 JLINK_ClrBPEx(BPHandle = 0x00000001)  returns 0x00 (0000ms, 0686ms total)
T2788 001:158 JLINK_ReadReg(R0)  returns 0x00000000 (0000ms, 0686ms total)
T2788 001:159 JLINK_WriteReg(R0, 0x08000000)  returns 0x00 (0000ms, 0686ms total)
T2788 001:159 JLINK_WriteReg(R1, 0x00B71B00)  returns 0x00 (0000ms, 0686ms total)
T2788 001:159 JLINK_WriteReg(R2, 0x00000001)  returns 0x00 (0000ms, 0686ms total)
T2788 001:159 JLINK_WriteReg(R3, 0x00000000)  returns 0x00 (0000ms, 0686ms total)
T2788 001:159 JLINK_WriteReg(R4, 0x00000000)  returns 0x00 (0000ms, 0686ms total)
T2788 001:159 JLINK_WriteReg(R5, 0x00000000)  returns 0x00 (0000ms, 0686ms total)
T2788 001:159 JLINK_WriteReg(R6, 0x00000000)  returns 0x00 (0000ms, 0686ms total)
T2788 001:159 JLINK_WriteReg(R7, 0x00000000)  returns 0x00 (0000ms, 0686ms total)
T2788 001:159 JLINK_WriteReg(R8, 0x00000000)  returns 0x00 (0001ms, 0687ms total)
T2788 001:160 JLINK_WriteReg(R9, 0x20000160)  returns 0x00 (0000ms, 0687ms total)
T2788 001:160 JLINK_WriteReg(R10, 0x00000000)  returns 0x00 (0000ms, 0687ms total)
T2788 001:160 JLINK_WriteReg(R11, 0x00000000)  returns 0x00 (0000ms, 0687ms total)
T2788 001:160 JLINK_WriteReg(R12, 0x00000000)  returns 0x00 (0000ms, 0687ms total)
T2788 001:160 JLINK_WriteReg(R13 (SP), 0x20000800)  returns 0x00 (0000ms, 0687ms total)
T2788 001:160 JLINK_WriteReg(R14, 0x20000001)  returns 0x00 (0000ms, 0687ms total)
T2788 001:160 JLINK_WriteReg(R15 (PC), 0x2000007C)  returns 0x00 (0000ms, 0687ms total)
T2788 001:160 JLINK_WriteReg(XPSR, 0x01000000)  returns 0x00 (0000ms, 0687ms total)
T2788 001:160 JLINK_WriteReg(MSP, 0x20000800)  returns 0x00 (0000ms, 0687ms total)
T2788 001:160 JLINK_WriteReg(PSP, 0x20000800)  returns 0x00 (0000ms, 0687ms total)
T2788 001:160 JLINK_WriteReg(CFBP, 0x00000000)  returns 0x00 (0000ms, 0687ms total)
T2788 001:160 JLINK_SetBPEx(Addr = 0x20000000, Type = 0xFFFFFFF2)  returns 0x00000002 (0001ms, 0688ms total)
T2788 001:161 JLINK_Go() (0001ms, 0689ms total)
T2788 001:162 JLINK_IsHalted()  returns FALSE (0002ms, 0691ms total)
T2788 001:252 JLINK_IsHalted() -- CPU_ReadMem(2 bytes @ 0x20000000)  returns TRUE (0003ms, 0692ms total)
T2788 001:255 JLINK_ReadReg(R15 (PC))  returns 0x20000000 (0000ms, 0689ms total)
T2788 001:256 JLINK_ClrBPEx(BPHandle = 0x00000002)  returns 0x00 (0000ms, 0689ms total)
T2788 001:256 JLINK_ReadReg(R0)  returns 0x00000000 (0000ms, 0689ms total)
T2788 001:309 JLINK_WriteReg(R0, 0x00000001)  returns 0x00 (0000ms, 0689ms total)
T2788 001:309 JLINK_WriteReg(R1, 0x00B71B00)  returns 0x00 (0000ms, 0689ms total)
T2788 001:309 JLINK_WriteReg(R2, 0x00000001)  returns 0x00 (0000ms, 0689ms total)
T2788 001:309 JLINK_WriteReg(R3, 0x00000000)  returns 0x00 (0000ms, 0689ms total)
T2788 001:309 JLINK_WriteReg(R4, 0x00000000)  returns 0x00 (0000ms, 0689ms total)
T2788 001:309 JLINK_WriteReg(R5, 0x00000000)  returns 0x00 (0000ms, 0689ms total)
T2788 001:309 JLINK_WriteReg(R6, 0x00000000)  returns 0x00 (0000ms, 0689ms total)
T2788 001:309 JLINK_WriteReg(R7, 0x00000000)  returns 0x00 (0000ms, 0689ms total)
T2788 001:309 JLINK_WriteReg(R8, 0x00000000)  returns 0x00 (0000ms, 0689ms total)
T2788 001:309 JLINK_WriteReg(R9, 0x20000160)  returns 0x00 (0000ms, 0689ms total)
T2788 001:309 JLINK_WriteReg(R10, 0x00000000)  returns 0x00 (0000ms, 0689ms total)
T2788 001:309 JLINK_WriteReg(R11, 0x00000000)  returns 0x00 (0001ms, 0690ms total)
T2788 001:310 JLINK_WriteReg(R12, 0x00000000)  returns 0x00 (0000ms, 0690ms total)
T2788 001:310 JLINK_WriteReg(R13 (SP), 0x20000800)  returns 0x00 (0000ms, 0690ms total)
T2788 001:310 JLINK_WriteReg(R14, 0x20000001)  returns 0x00 (0000ms, 0690ms total)
T2788 001:310 JLINK_WriteReg(R15 (PC), 0x2000006A)  returns 0x00 (0000ms, 0690ms total)
T2788 001:310 JLINK_WriteReg(XPSR, 0x01000000)  returns 0x00 (0000ms, 0690ms total)
T2788 001:310 JLINK_WriteReg(MSP, 0x20000800)  returns 0x00 (0000ms, 0690ms total)
T2788 001:310 JLINK_WriteReg(PSP, 0x20000800)  returns 0x00 (0000ms, 0690ms total)
T2788 001:310 JLINK_WriteReg(CFBP, 0x00000000)  returns 0x00 (0000ms, 0690ms total)
T2788 001:310 JLINK_SetBPEx(Addr = 0x20000000, Type = 0xFFFFFFF2)  returns 0x00000003 (0000ms, 0690ms total)
T2788 001:310 JLINK_Go() (0002ms, 0692ms total)
T2788 001:312 JLINK_IsHalted() -- CPU_ReadMem(2 bytes @ 0x20000000)  returns TRUE (0004ms, 0696ms total)
T2788 001:316 JLINK_ReadReg(R15 (PC))  returns 0x20000000 (0000ms, 0692ms total)
T2788 001:316 JLINK_ClrBPEx(BPHandle = 0x00000003)  returns 0x00 (0000ms, 0692ms total)
T2788 001:316 JLINK_ReadReg(R0)  returns 0x00000000 (0000ms, 0692ms total)
T2788 001:329 JLINK_WriteMem(0x20000000, 0x0164 Bytes, ...) - Data: 00 BE 0A E0 0D 78 2D 06 68 40 08 24 40 00 00 D3 ... -- CPU_WriteMem(356 bytes @ 0x20000000)  returns 0x164 (0003ms, 0695ms total)
T2788 001:332 JLINK_WriteReg(R0, 0x08000000)  returns 0x00 (0000ms, 0695ms total)
T2788 001:332 JLINK_WriteReg(R1, 0x00B71B00)  returns 0x00 (0000ms, 0695ms total)
T2788 001:332 JLINK_WriteReg(R2, 0x00000002)  returns 0x00 (0000ms, 0695ms total)
T2788 001:332 JLINK_WriteReg(R3, 0x00000000)  returns 0x00 (0000ms, 0695ms total)
T2788 001:332 JLINK_WriteReg(R4, 0x00000000)  returns 0x00 (0000ms, 0695ms total)
T2788 001:332 JLINK_WriteReg(R5, 0x00000000)  returns 0x00 (0000ms, 0695ms total)
T2788 001:332 JLINK_WriteReg(R6, 0x00000000)  returns 0x00 (0001ms, 0696ms total)
T2788 001:333 JLINK_WriteReg(R7, 0x00000000)  returns 0x00 (0000ms, 0696ms total)
T2788 001:333 JLINK_WriteReg(R8, 0x00000000)  returns 0x00 (0000ms, 0696ms total)
T2788 001:333 JLINK_WriteReg(R9, 0x20000160)  returns 0x00 (0000ms, 0696ms total)
T2788 001:333 JLINK_WriteReg(R10, 0x00000000)  returns 0x00 (0000ms, 0696ms total)
T2788 001:333 JLINK_WriteReg(R11, 0x00000000)  returns 0x00 (0000ms, 0696ms total)
T2788 001:333 JLINK_WriteReg(R12, 0x00000000)  returns 0x00 (0000ms, 0696ms total)
T2788 001:333 JLINK_WriteReg(R13 (SP), 0x20000800)  returns 0x00 (0000ms, 0696ms total)
T2788 001:333 JLINK_WriteReg(R14, 0x20000001)  returns 0x00 (0000ms, 0696ms total)
T2788 001:333 JLINK_WriteReg(R15 (PC), 0x20000038)  returns 0x00 (0000ms, 0696ms total)
T2788 001:333 JLINK_WriteReg(XPSR, 0x01000000)  returns 0x00 (0000ms, 0696ms total)
T2788 001:333 JLINK_WriteReg(MSP, 0x20000800)  returns 0x00 (0000ms, 0696ms total)
T2788 001:333 JLINK_WriteReg(PSP, 0x20000800)  returns 0x00 (0000ms, 0696ms total)
T2788 001:333 JLINK_WriteReg(CFBP, 0x00000000)  returns 0x00 (0000ms, 0696ms total)
T2788 001:334 JLINK_SetBPEx(Addr = 0x20000000, Type = 0xFFFFFFF2) -- CPU_ReadMem(2 bytes @ 0x20000000)  returns 0x00000004 (0000ms, 0696ms total)
T2788 001:334 JLINK_Go() -- CPU_WriteMem(2 bytes @ 0x20000000) (0003ms, 0699ms total)
T2788 001:337 JLINK_IsHalted() -- CPU_ReadMem(2 bytes @ 0x20000000)  returns TRUE (0004ms, 0703ms total)
T2788 001:341 JLINK_ReadReg(R15 (PC))  returns 0x20000000 (0000ms, 0699ms total)
T2788 001:341 JLINK_ClrBPEx(BPHandle = 0x00000004)  returns 0x00 (0000ms, 0699ms total)
T2788 001:341 JLINK_ReadReg(R0)  returns 0x00000000 (0000ms, 0699ms total)
T2788 001:342 JLINK_WriteMem(0x20000164, 0x0400 Bytes, ...) - Data: 78 09 00 20 45 01 00 08 89 16 00 08 81 16 00 08 ... -- CPU_WriteMem(1024 bytes @ 0x20000164)  returns 0x400 (0006ms, 0705ms total)
T2788 001:349 JLINK_WriteReg(R0, 0x08000000)  returns 0x00 (0000ms, 0706ms total)
T2788 001:349 JLINK_WriteReg(R1, 0x00000400)  returns 0x00 (0000ms, 0706ms total)
T2788 001:349 JLINK_WriteReg(R2, 0x20000164)  returns 0x00 (0000ms, 0706ms total)
T2788 001:349 JLINK_WriteReg(R3, 0x00000000)  returns 0x00 (0000ms, 0706ms total)
T2788 001:349 JLINK_WriteReg(R4, 0x00000000)  returns 0x00 (0000ms, 0706ms total)
T2788 001:349 JLINK_WriteReg(R5, 0x00000000)  returns 0x00 (0000ms, 0706ms total)
T2788 001:349 JLINK_WriteReg(R6, 0x00000000)  returns 0x00 (0000ms, 0706ms total)
T2788 001:349 JLINK_WriteReg(R7, 0x00000000)  returns 0x00 (0000ms, 0706ms total)
T2788 001:349 JLINK_WriteReg(R8, 0x00000000)  returns 0x00 (0000ms, 0706ms total)
T2788 001:349 JLINK_WriteReg(R9, 0x20000160)  returns 0x00 (0000ms, 0706ms total)
T2788 001:349 JLINK_WriteReg(R10, 0x00000000)  returns 0x00 (0000ms, 0706ms total)
T2788 001:349 JLINK_WriteReg(R11, 0x00000000)  returns 0x00 (0000ms, 0706ms total)
T2788 001:349 JLINK_WriteReg(R12, 0x00000000)  returns 0x00 (0001ms, 0707ms total)
T2788 001:350 JLINK_WriteReg(R13 (SP), 0x20000800)  returns 0x00 (0000ms, 0707ms total)
T2788 001:350 JLINK_WriteReg(R14, 0x20000001)  returns 0x00 (0000ms, 0707ms total)
T2788 001:350 JLINK_WriteReg(R15 (PC), 0x200000F4)  returns 0x00 (0000ms, 0707ms total)
T2788 001:350 JLINK_WriteReg(XPSR, 0x01000000)  returns 0x00 (0000ms, 0707ms total)
T2788 001:350 JLINK_WriteReg(MSP, 0x20000800)  returns 0x00 (0000ms, 0707ms total)
T2788 001:350 JLINK_WriteReg(PSP, 0x20000800)  returns 0x00 (0000ms, 0707ms total)
T2788 001:350 JLINK_WriteReg(CFBP, 0x00000000)  returns 0x00 (0000ms, 0707ms total)
T2788 001:350 JLINK_SetBPEx(Addr = 0x20000000, Type = 0xFFFFFFF2)  returns 0x00000005 (0000ms, 0707ms total)
T2788 001:350 JLINK_Go() (0002ms, 0709ms total)
T2788 001:352 JLINK_IsHalted()  returns FALSE (0001ms, 0710ms total)
T2788 001:389 JLINK_IsHalted() -- CPU_ReadMem(2 bytes @ 0x20000000)  returns TRUE (0003ms, 0712ms total)
T2788 001:392 JLINK_ReadReg(R15 (PC))  returns 0x20000000 (0000ms, 0709ms total)
T2788 001:392 JLINK_ClrBPEx(BPHandle = 0x00000005)  returns 0x00 (0000ms, 0709ms total)
T2788 001:392 JLINK_ReadReg(R0)  returns 0x00000000 (0000ms, 0709ms total)
T2788 001:394 JLINK_WriteMem(0x20000164, 0x0400 Bytes, ...) - Data: 40 EA D5 70 B6 19 6D 41 11 E0 6D 08 4F EA 36 06 ... -- CPU_WriteMem(1024 bytes @ 0x20000164)  returns 0x400 (0007ms, 0716ms total)
T2788 001:401 JLINK_WriteReg(R0, 0x08000400)  returns 0x00 (0000ms, 0716ms total)
T2788 001:401 JLINK_WriteReg(R1, 0x00000400)  returns 0x00 (0000ms, 0716ms total)
T2788 001:401 JLINK_WriteReg(R2, 0x20000164)  returns 0x00 (0000ms, 0716ms total)
T2788 001:401 JLINK_WriteReg(R3, 0x00000000)  returns 0x00 (0000ms, 0716ms total)
T2788 001:401 JLINK_WriteReg(R4, 0x00000000)  returns 0x00 (0000ms, 0716ms total)
T2788 001:401 JLINK_WriteReg(R5, 0x00000000)  returns 0x00 (0000ms, 0716ms total)
T2788 001:401 JLINK_WriteReg(R6, 0x00000000)  returns 0x00 (0000ms, 0716ms total)
T2788 001:401 JLINK_WriteReg(R7, 0x00000000)  returns 0x00 (0000ms, 0716ms total)
T2788 001:401 JLINK_WriteReg(R8, 0x00000000)  returns 0x00 (0000ms, 0716ms total)
T2788 001:401 JLINK_WriteReg(R9, 0x20000160)  returns 0x00 (0001ms, 0717ms total)
T2788 001:402 JLINK_WriteReg(R10, 0x00000000)  returns 0x00 (0000ms, 0717ms total)
T2788 001:402 JLINK_WriteReg(R11, 0x00000000)  returns 0x00 (0000ms, 0717ms total)
T2788 001:402 JLINK_WriteReg(R12, 0x00000000)  returns 0x00 (0000ms, 0717ms total)
T2788 001:402 JLINK_WriteReg(R13 (SP), 0x20000800)  returns 0x00 (0000ms, 0717ms total)
T2788 001:402 JLINK_WriteReg(R14, 0x20000001)  returns 0x00 (0000ms, 0717ms total)
T2788 001:402 JLINK_WriteReg(R15 (PC), 0x200000F4)  returns 0x00 (0000ms, 0717ms total)
T2788 001:402 JLINK_WriteReg(XPSR, 0x01000000)  returns 0x00 (0000ms, 0717ms total)
T2788 001:402 JLINK_WriteReg(MSP, 0x20000800)  returns 0x00 (0000ms, 0717ms total)
T2788 001:402 JLINK_WriteReg(PSP, 0x20000800)  returns 0x00 (0000ms, 0717ms total)
T2788 001:402 JLINK_WriteReg(CFBP, 0x00000000)  returns 0x00 (0000ms, 0717ms total)
T2788 001:402 JLINK_SetBPEx(Addr = 0x20000000, Type = 0xFFFFFFF2)  returns 0x00000006 (0000ms, 0717ms total)
T2788 001:402 JLINK_Go() (0002ms, 0719ms total)
T2788 001:404 JLINK_IsHalted()  returns FALSE (0001ms, 0720ms total)
T2788 001:407 JLINK_IsHalted()  returns FALSE (0000ms, 0719ms total)
T2788 001:409 JLINK_IsHalted()  returns FALSE (0000ms, 0719ms total)
T2788 001:411 JLINK_IsHalted()  returns FALSE (0000ms, 0719ms total)
T2788 001:413 JLINK_IsHalted()  returns FALSE (0000ms, 0719ms total)
T2788 001:415 JLINK_IsHalted()  returns FALSE (0000ms, 0719ms total)
T2788 001:417 JLINK_IsHalted()  returns FALSE (0001ms, 0720ms total)
T2788 001:420 JLINK_IsHalted()  returns FALSE (0000ms, 0719ms total)
T2788 001:422 JLINK_IsHalted()  returns FALSE (0000ms, 0719ms total)
T2788 001:437 JLINK_IsHalted() -- CPU_ReadMem(2 bytes @ 0x20000000)  returns TRUE (0003ms, 0722ms total)
T2788 001:440 JLINK_ReadReg(R15 (PC))  returns 0x20000000 (0000ms, 0719ms total)
T2788 001:440 JLINK_ClrBPEx(BPHandle = 0x00000006)  returns 0x00 (0000ms, 0719ms total)
T2788 001:440 JLINK_ReadReg(R0)  returns 0x00000000 (0000ms, 0719ms total)
T2788 001:442 JLINK_WriteMem(0x20000164, 0x0400 Bytes, ...) - Data: 00 20 70 47 91 40 C2 F1 20 03 20 FA 03 F3 19 43 ... -- CPU_WriteMem(1024 bytes @ 0x20000164)  returns 0x400 (0006ms, 0725ms total)
T2788 001:448 JLINK_WriteReg(R0, 0x08000800)  returns 0x00 (0000ms, 0725ms total)
T2788 001:448 JLINK_WriteReg(R1, 0x00000400)  returns 0x00 (0000ms, 0725ms total)
T2788 001:448 JLINK_WriteReg(R2, 0x20000164)  returns 0x00 (0000ms, 0725ms total)
T2788 001:448 JLINK_WriteReg(R3, 0x00000000)  returns 0x00 (0001ms, 0726ms total)
T2788 001:449 JLINK_WriteReg(R4, 0x00000000)  returns 0x00 (0000ms, 0726ms total)
T2788 001:449 JLINK_WriteReg(R5, 0x00000000)  returns 0x00 (0000ms, 0726ms total)
T2788 001:449 JLINK_WriteReg(R6, 0x00000000)  returns 0x00 (0000ms, 0726ms total)
T2788 001:449 JLINK_WriteReg(R7, 0x00000000)  returns 0x00 (0000ms, 0726ms total)
T2788 001:449 JLINK_WriteReg(R8, 0x00000000)  returns 0x00 (0000ms, 0726ms total)
T2788 001:449 JLINK_WriteReg(R9, 0x20000160)  returns 0x00 (0000ms, 0726ms total)
T2788 001:449 JLINK_WriteReg(R10, 0x00000000)  returns 0x00 (0000ms, 0726ms total)
T2788 001:449 JLINK_WriteReg(R11, 0x00000000)  returns 0x00 (0000ms, 0726ms total)
T2788 001:449 JLINK_WriteReg(R12, 0x00000000)  returns 0x00 (0000ms, 0726ms total)
T2788 001:449 JLINK_WriteReg(R13 (SP), 0x20000800)  returns 0x00 (0000ms, 0726ms total)
T2788 001:449 JLINK_WriteReg(R14, 0x20000001)  returns 0x00 (0000ms, 0726ms total)
T2788 001:449 JLINK_WriteReg(R15 (PC), 0x200000F4)  returns 0x00 (0000ms, 0726ms total)
T2788 001:449 JLINK_WriteReg(XPSR, 0x01000000)  returns 0x00 (0001ms, 0727ms total)
T2788 001:450 JLINK_WriteReg(MSP, 0x20000800)  returns 0x00 (0000ms, 0727ms total)
T2788 001:450 JLINK_WriteReg(PSP, 0x20000800)  returns 0x00 (0000ms, 0727ms total)
T2788 001:450 JLINK_WriteReg(CFBP, 0x00000000)  returns 0x00 (0000ms, 0727ms total)
T2788 001:450 JLINK_SetBPEx(Addr = 0x20000000, Type = 0xFFFFFFF2)  returns 0x00000007 (0000ms, 0727ms total)
T2788 001:450 JLINK_Go() (0002ms, 0729ms total)
T2788 001:452 JLINK_IsHalted()  returns FALSE (0000ms, 0729ms total)
T2788 001:458 JLINK_IsHalted()  returns FALSE (0000ms, 0729ms total)
T2788 001:460 JLINK_IsHalted()  returns FALSE (0000ms, 0729ms total)
T2788 001:462 JLINK_IsHalted()  returns FALSE (0000ms, 0729ms total)
T2788 001:464 JLINK_IsHalted()  returns FALSE (0001ms, 0730ms total)
T2788 001:467 JLINK_IsHalted()  returns FALSE (0000ms, 0729ms total)
T2788 001:469 JLINK_IsHalted()  returns FALSE (0000ms, 0729ms total)
T2788 001:471 JLINK_IsHalted()  returns FALSE (0000ms, 0729ms total)
T2788 001:473 JLINK_IsHalted()  returns FALSE (0001ms, 0730ms total)
T2788 001:476 JLINK_IsHalted()  returns FALSE (0001ms, 0730ms total)
T2788 001:479 JLINK_IsHalted()  returns FALSE (0000ms, 0729ms total)
T2788 001:481 JLINK_IsHalted()  returns FALSE (0000ms, 0729ms total)
T2788 001:483 JLINK_IsHalted() -- CPU_ReadMem(2 bytes @ 0x20000000)  returns TRUE (0004ms, 0733ms total)
T2788 001:487 JLINK_ReadReg(R15 (PC))  returns 0x20000000 (0000ms, 0729ms total)
T2788 001:487 JLINK_ClrBPEx(BPHandle = 0x00000007)  returns 0x00 (0000ms, 0729ms total)
T2788 001:487 JLINK_ReadReg(R0)  returns 0x00000000 (0000ms, 0729ms total)
T2788 001:488 JLINK_WriteMem(0x20000164, 0x0400 Bytes, ...) - Data: 6D 1C 0E 98 88 47 82 46 76 1E 69 46 60 05 01 D5 ... -- CPU_WriteMem(1024 bytes @ 0x20000164)  returns 0x400 (0007ms, 0736ms total)
T2788 001:495 JLINK_WriteReg(R0, 0x08000C00)  returns 0x00 (0000ms, 0736ms total)
T2788 001:495 JLINK_WriteReg(R1, 0x00000400)  returns 0x00 (0000ms, 0736ms total)
T2788 001:495 JLINK_WriteReg(R2, 0x20000164)  returns 0x00 (0000ms, 0736ms total)
T2788 001:495 JLINK_WriteReg(R3, 0x00000000)  returns 0x00 (0000ms, 0736ms total)
T2788 001:495 JLINK_WriteReg(R4, 0x00000000)  returns 0x00 (0000ms, 0736ms total)
T2788 001:495 JLINK_WriteReg(R5, 0x00000000)  returns 0x00 (0001ms, 0737ms total)
T2788 001:496 JLINK_WriteReg(R6, 0x00000000)  returns 0x00 (0000ms, 0737ms total)
T2788 001:496 JLINK_WriteReg(R7, 0x00000000)  returns 0x00 (0000ms, 0737ms total)
T2788 001:496 JLINK_WriteReg(R8, 0x00000000)  returns 0x00 (0000ms, 0737ms total)
T2788 001:496 JLINK_WriteReg(R9, 0x20000160)  returns 0x00 (0000ms, 0737ms total)
T2788 001:496 JLINK_WriteReg(R10, 0x00000000)  returns 0x00 (0000ms, 0737ms total)
T2788 001:496 JLINK_WriteReg(R11, 0x00000000)  returns 0x00 (0000ms, 0737ms total)
T2788 001:496 JLINK_WriteReg(R12, 0x00000000)  returns 0x00 (0000ms, 0737ms total)
T2788 001:496 JLINK_WriteReg(R13 (SP), 0x20000800)  returns 0x00 (0000ms, 0737ms total)
T2788 001:496 JLINK_WriteReg(R14, 0x20000001)  returns 0x00 (0000ms, 0737ms total)
T2788 001:496 JLINK_WriteReg(R15 (PC), 0x200000F4)  returns 0x00 (0000ms, 0737ms total)
T2788 001:496 JLINK_WriteReg(XPSR, 0x01000000)  returns 0x00 (0000ms, 0737ms total)
T2788 001:496 JLINK_WriteReg(MSP, 0x20000800)  returns 0x00 (0000ms, 0737ms total)
T2788 001:496 JLINK_WriteReg(PSP, 0x20000800)  returns 0x00 (0000ms, 0737ms total)
T2788 001:496 JLINK_WriteReg(CFBP, 0x00000000)  returns 0x00 (0001ms, 0738ms total)
T2788 001:497 JLINK_SetBPEx(Addr = 0x20000000, Type = 0xFFFFFFF2)  returns 0x00000008 (0000ms, 0738ms total)
T2788 001:497 JLINK_Go() (0002ms, 0740ms total)
T2788 001:499 JLINK_IsHalted()  returns FALSE (0000ms, 0740ms total)
T2788 001:501 JLINK_IsHalted()  returns FALSE (0001ms, 0741ms total)
T2788 001:504 JLINK_IsHalted()  returns FALSE (0000ms, 0740ms total)
T2788 001:506 JLINK_IsHalted()  returns FALSE (0000ms, 0740ms total)
T2788 001:508 JLINK_IsHalted()  returns FALSE (0000ms, 0740ms total)
T2788 001:510 JLINK_IsHalted()  returns FALSE (0000ms, 0740ms total)
T2788 001:512 JLINK_IsHalted()  returns FALSE (0000ms, 0740ms total)
T2788 001:514 JLINK_IsHalted()  returns FALSE (0000ms, 0740ms total)
T2788 001:516 JLINK_IsHalted()  returns FALSE (0000ms, 0740ms total)
T2788 001:518 JLINK_IsHalted()  returns FALSE (0000ms, 0740ms total)
T2788 001:520 JLINK_IsHalted()  returns FALSE (0000ms, 0740ms total)
T2788 001:522 JLINK_IsHalted()  returns FALSE (0000ms, 0740ms total)
T2788 001:524 JLINK_IsHalted()  returns FALSE (0000ms, 0740ms total)
T2788 001:526 JLINK_IsHalted()  returns FALSE (0000ms, 0740ms total)
T2788 001:544 JLINK_IsHalted() -- CPU_ReadMem(2 bytes @ 0x20000000)  returns TRUE (0004ms, 0744ms total)
T2788 001:548 JLINK_ReadReg(R15 (PC))  returns 0x20000000 (0000ms, 0740ms total)
T2788 001:548 JLINK_ClrBPEx(BPHandle = 0x00000008)  returns 0x00 (0000ms, 0740ms total)
T2788 001:548 JLINK_ReadReg(R0)  returns 0x00000000 (0000ms, 0740ms total)
T2788 001:549 JLINK_WriteMem(0x20000164, 0x0400 Bytes, ...) - Data: 00 20 AD F8 08 00 01 20 8D F8 0D 00 68 46 00 F0 ... -- CPU_WriteMem(1024 bytes @ 0x20000164)  returns 0x400 (0007ms, 0747ms total)
T2788 001:556 JLINK_WriteReg(R0, 0x08001000)  returns 0x00 (0000ms, 0747ms total)
T2788 001:556 JLINK_WriteReg(R1, 0x00000400)  returns 0x00 (0000ms, 0747ms total)
T2788 001:556 JLINK_WriteReg(R2, 0x20000164)  returns 0x00 (0000ms, 0747ms total)
T2788 001:556 JLINK_WriteReg(R3, 0x00000000)  returns 0x00 (0000ms, 0747ms total)
T2788 001:556 JLINK_WriteReg(R4, 0x00000000)  returns 0x00 (0000ms, 0747ms total)
T2788 001:556 JLINK_WriteReg(R5, 0x00000000)  returns 0x00 (0000ms, 0747ms total)
T2788 001:556 JLINK_WriteReg(R6, 0x00000000)  returns 0x00 (0000ms, 0747ms total)
T2788 001:556 JLINK_WriteReg(R7, 0x00000000)  returns 0x00 (0001ms, 0748ms total)
T2788 001:557 JLINK_WriteReg(R8, 0x00000000)  returns 0x00 (0000ms, 0748ms total)
T2788 001:557 JLINK_WriteReg(R9, 0x20000160)  returns 0x00 (0000ms, 0748ms total)
T2788 001:557 JLINK_WriteReg(R10, 0x00000000)  returns 0x00 (0000ms, 0748ms total)
T2788 001:557 JLINK_WriteReg(R11, 0x00000000)  returns 0x00 (0000ms, 0748ms total)
T2788 001:557 JLINK_WriteReg(R12, 0x00000000)  returns 0x00 (0000ms, 0748ms total)
T2788 001:557 JLINK_WriteReg(R13 (SP), 0x20000800)  returns 0x00 (0000ms, 0748ms total)
T2788 001:557 JLINK_WriteReg(R14, 0x20000001)  returns 0x00 (0000ms, 0748ms total)
T2788 001:557 JLINK_WriteReg(R15 (PC), 0x200000F4)  returns 0x00 (0000ms, 0748ms total)
T2788 001:557 JLINK_WriteReg(XPSR, 0x01000000)  returns 0x00 (0000ms, 0748ms total)
T2788 001:557 JLINK_WriteReg(MSP, 0x20000800)  returns 0x00 (0000ms, 0748ms total)
T2788 001:557 JLINK_WriteReg(PSP, 0x20000800)  returns 0x00 (0000ms, 0748ms total)
T2788 001:557 JLINK_WriteReg(CFBP, 0x00000000)  returns 0x00 (0000ms, 0748ms total)
T2788 001:557 JLINK_SetBPEx(Addr = 0x20000000, Type = 0xFFFFFFF2)  returns 0x00000009 (0001ms, 0749ms total)
T2788 001:558 JLINK_Go() (0001ms, 0750ms total)
T2788 001:559 JLINK_IsHalted()  returns FALSE (0001ms, 0751ms total)
T2788 001:562 JLINK_IsHalted()  returns FALSE (0000ms, 0750ms total)
T2788 001:564 JLINK_IsHalted()  returns FALSE (0000ms, 0750ms total)
T2788 001:566 JLINK_IsHalted()  returns FALSE (0001ms, 0751ms total)
T2788 001:569 JLINK_IsHalted()  returns FALSE (0000ms, 0750ms total)
T2788 001:571 JLINK_IsHalted()  returns FALSE (0000ms, 0750ms total)
T2788 001:573 JLINK_IsHalted()  returns FALSE (0001ms, 0751ms total)
T2788 001:576 JLINK_IsHalted()  returns FALSE (0000ms, 0750ms total)
T2788 001:578 JLINK_IsHalted()  returns FALSE (0000ms, 0750ms total)
T2788 001:580 JLINK_IsHalted()  returns FALSE (0000ms, 0750ms total)
T2788 001:582 JLINK_IsHalted()  returns FALSE (0000ms, 0750ms total)
T2788 001:584 JLINK_IsHalted()  returns FALSE (0000ms, 0750ms total)
T2788 001:586 JLINK_IsHalted()  returns FALSE (0000ms, 0750ms total)
T2788 001:588 JLINK_IsHalted()  returns FALSE (0001ms, 0751ms total)
T2788 001:591 JLINK_IsHalted() -- CPU_ReadMem(2 bytes @ 0x20000000)  returns TRUE (0004ms, 0754ms total)
T2788 001:595 JLINK_ReadReg(R15 (PC))  returns 0x20000000 (0000ms, 0750ms total)
T2788 001:595 JLINK_ClrBPEx(BPHandle = 0x00000009)  returns 0x00 (0000ms, 0750ms total)
T2788 001:595 JLINK_ReadReg(R0)  returns 0x00000000 (0000ms, 0750ms total)
T2788 001:596 JLINK_WriteMem(0x20000164, 0x0400 Bytes, ...) - Data: D8 73 03 EB 01 13 5B 68 03 F0 0F 03 93 72 00 F5 ... -- CPU_WriteMem(1024 bytes @ 0x20000164)  returns 0x400 (0007ms, 0757ms total)
T2788 001:603 JLINK_WriteReg(R0, 0x08001400)  returns 0x00 (0000ms, 0757ms total)
T2788 001:603 JLINK_WriteReg(R1, 0x00000400)  returns 0x00 (0000ms, 0757ms total)
T2788 001:603 JLINK_WriteReg(R2, 0x20000164)  returns 0x00 (0000ms, 0757ms total)
T2788 001:603 JLINK_WriteReg(R3, 0x00000000)  returns 0x00 (0000ms, 0757ms total)
T2788 001:603 JLINK_WriteReg(R4, 0x00000000)  returns 0x00 (0000ms, 0757ms total)
T2788 001:603 JLINK_WriteReg(R5, 0x00000000)  returns 0x00 (0000ms, 0757ms total)
T2788 001:603 JLINK_WriteReg(R6, 0x00000000)  returns 0x00 (0000ms, 0757ms total)
T2788 001:603 JLINK_WriteReg(R7, 0x00000000)  returns 0x00 (0000ms, 0757ms total)
T2788 001:603 JLINK_WriteReg(R8, 0x00000000)  returns 0x00 (0000ms, 0757ms total)
T2788 001:603 JLINK_WriteReg(R9, 0x20000160)  returns 0x00 (0001ms, 0758ms total)
T2788 001:604 JLINK_WriteReg(R10, 0x00000000)  returns 0x00 (0000ms, 0758ms total)
T2788 001:604 JLINK_WriteReg(R11, 0x00000000)  returns 0x00 (0000ms, 0758ms total)
T2788 001:604 JLINK_WriteReg(R12, 0x00000000)  returns 0x00 (0000ms, 0758ms total)
T2788 001:604 JLINK_WriteReg(R13 (SP), 0x20000800)  returns 0x00 (0000ms, 0758ms total)
T2788 001:604 JLINK_WriteReg(R14, 0x20000001)  returns 0x00 (0000ms, 0758ms total)
T2788 001:604 JLINK_WriteReg(R15 (PC), 0x200000F4)  returns 0x00 (0000ms, 0758ms total)
T2788 001:604 JLINK_WriteReg(XPSR, 0x01000000)  returns 0x00 (0000ms, 0758ms total)
T2788 001:604 JLINK_WriteReg(MSP, 0x20000800)  returns 0x00 (0000ms, 0758ms total)
T2788 001:604 JLINK_WriteReg(PSP, 0x20000800)  returns 0x00 (0000ms, 0758ms total)
T2788 001:604 JLINK_WriteReg(CFBP, 0x00000000)  returns 0x00 (0000ms, 0758ms total)
T2788 001:604 JLINK_SetBPEx(Addr = 0x20000000, Type = 0xFFFFFFF2)  returns 0x0000000A (0000ms, 0758ms total)
T2788 001:604 JLINK_Go() (0002ms, 0760ms total)
T2788 001:606 JLINK_IsHalted()  returns FALSE (0001ms, 0761ms total)
T2788 001:609 JLINK_IsHalted()  returns FALSE (0000ms, 0760ms total)
T2788 001:611 JLINK_IsHalted()  returns FALSE (0001ms, 0761ms total)
T2788 001:614 JLINK_IsHalted()  returns FALSE (0000ms, 0760ms total)
T2788 001:617 JLINK_IsHalted()  returns FALSE (0000ms, 0760ms total)
T2788 001:619 JLINK_IsHalted()  returns FALSE (0000ms, 0760ms total)
T2788 001:621 JLINK_IsHalted()  returns FALSE (0000ms, 0760ms total)
T2788 001:623 JLINK_IsHalted()  returns FALSE (0000ms, 0760ms total)
T2788 001:625 JLINK_IsHalted()  returns FALSE (0000ms, 0760ms total)
T2788 001:626 JLINK_IsHalted()  returns FALSE (0000ms, 0760ms total)
T2788 001:629 JLINK_IsHalted()  returns FALSE (0000ms, 0760ms total)
T2788 001:631 JLINK_IsHalted()  returns FALSE (0000ms, 0760ms total)
T2788 001:633 JLINK_IsHalted()  returns FALSE (0000ms, 0760ms total)
T2788 001:635 JLINK_IsHalted()  returns FALSE (0000ms, 0760ms total)
T2788 001:637 JLINK_IsHalted() -- CPU_ReadMem(2 bytes @ 0x20000000)  returns TRUE (0003ms, 0763ms total)
T2788 001:640 JLINK_ReadReg(R15 (PC))  returns 0x20000000 (0000ms, 0760ms total)
T2788 001:640 JLINK_ClrBPEx(BPHandle = 0x0000000A)  returns 0x00 (0000ms, 0760ms total)
T2788 001:640 JLINK_ReadReg(R0)  returns 0x00000000 (0000ms, 0760ms total)
T2788 001:642 JLINK_WriteMem(0x20000164, 0x0400 Bytes, ...) - Data: 00 BF 00 BF 14 4D 6D 68 05 F0 F0 01 09 09 15 4D ... -- CPU_WriteMem(1024 bytes @ 0x20000164)  returns 0x400 (0007ms, 0767ms total)
T2788 001:649 JLINK_WriteReg(R0, 0x08001800)  returns 0x00 (0000ms, 0767ms total)
T2788 001:649 JLINK_WriteReg(R1, 0x00000400)  returns 0x00 (0000ms, 0767ms total)
T2788 001:649 JLINK_WriteReg(R2, 0x20000164)  returns 0x00 (0000ms, 0767ms total)
T2788 001:649 JLINK_WriteReg(R3, 0x00000000)  returns 0x00 (0000ms, 0767ms total)
T2788 001:649 JLINK_WriteReg(R4, 0x00000000)  returns 0x00 (0000ms, 0767ms total)
T2788 001:649 JLINK_WriteReg(R5, 0x00000000)  returns 0x00 (0000ms, 0767ms total)
T2788 001:649 JLINK_WriteReg(R6, 0x00000000)  returns 0x00 (0000ms, 0767ms total)
T2788 001:649 JLINK_WriteReg(R7, 0x00000000)  returns 0x00 (0000ms, 0767ms total)
T2788 001:649 JLINK_WriteReg(R8, 0x00000000)  returns 0x00 (0001ms, 0768ms total)
T2788 001:650 JLINK_WriteReg(R9, 0x20000160)  returns 0x00 (0000ms, 0768ms total)
T2788 001:650 JLINK_WriteReg(R10, 0x00000000)  returns 0x00 (0000ms, 0768ms total)
T2788 001:650 JLINK_WriteReg(R11, 0x00000000)  returns 0x00 (0000ms, 0768ms total)
T2788 001:650 JLINK_WriteReg(R12, 0x00000000)  returns 0x00 (0000ms, 0768ms total)
T2788 001:650 JLINK_WriteReg(R13 (SP), 0x20000800)  returns 0x00 (0000ms, 0768ms total)
T2788 001:650 JLINK_WriteReg(R14, 0x20000001)  returns 0x00 (0000ms, 0768ms total)
T2788 001:650 JLINK_WriteReg(R15 (PC), 0x200000F4)  returns 0x00 (0000ms, 0768ms total)
T2788 001:650 JLINK_WriteReg(XPSR, 0x01000000)  returns 0x00 (0000ms, 0768ms total)
T2788 001:650 JLINK_WriteReg(MSP, 0x20000800)  returns 0x00 (0000ms, 0768ms total)
T2788 001:650 JLINK_WriteReg(PSP, 0x20000800)  returns 0x00 (0000ms, 0768ms total)
T2788 001:650 JLINK_WriteReg(CFBP, 0x00000000)  returns 0x00 (0000ms, 0768ms total)
T2788 001:650 JLINK_SetBPEx(Addr = 0x20000000, Type = 0xFFFFFFF2)  returns 0x0000000B (0000ms, 0768ms total)
T2788 001:650 JLINK_Go() (0002ms, 0770ms total)
T2788 001:652 JLINK_IsHalted()  returns FALSE (0001ms, 0771ms total)
T2788 001:671 JLINK_IsHalted()  returns FALSE (0000ms, 0770ms total)
T2788 001:673 JLINK_IsHalted()  returns FALSE (0001ms, 0771ms total)
T2788 001:676 JLINK_IsHalted()  returns FALSE (0001ms, 0771ms total)
T2788 001:679 JLINK_IsHalted()  returns FALSE (0000ms, 0770ms total)
T2788 001:681 JLINK_IsHalted()  returns FALSE (0000ms, 0770ms total)
T2788 001:683 JLINK_IsHalted() -- CPU_ReadMem(2 bytes @ 0x20000000)  returns TRUE (0003ms, 0773ms total)
T2788 001:686 JLINK_ReadReg(R15 (PC))  returns 0x20000000 (0000ms, 0770ms total)
T2788 001:686 JLINK_ClrBPEx(BPHandle = 0x0000000B)  returns 0x00 (0000ms, 0770ms total)
T2788 001:686 JLINK_ReadReg(R0)  returns 0x00000000 (0000ms, 0770ms total)
T2788 001:687 JLINK_WriteMem(0x20000164, 0x0400 Bytes, ...) - Data: 3E 00 00 20 00 48 00 40 2D E9 F0 43 85 B0 05 46 ... -- CPU_WriteMem(1024 bytes @ 0x20000164)  returns 0x400 (0007ms, 0777ms total)
T2788 001:694 JLINK_WriteReg(R0, 0x08001C00)  returns 0x00 (0000ms, 0777ms total)
T2788 001:694 JLINK_WriteReg(R1, 0x00000400)  returns 0x00 (0001ms, 0778ms total)
T2788 001:695 JLINK_WriteReg(R2, 0x20000164)  returns 0x00 (0000ms, 0778ms total)
T2788 001:695 JLINK_WriteReg(R3, 0x00000000)  returns 0x00 (0000ms, 0778ms total)
T2788 001:695 JLINK_WriteReg(R4, 0x00000000)  returns 0x00 (0000ms, 0778ms total)
T2788 001:695 JLINK_WriteReg(R5, 0x00000000)  returns 0x00 (0000ms, 0778ms total)
T2788 001:695 JLINK_WriteReg(R6, 0x00000000)  returns 0x00 (0000ms, 0778ms total)
T2788 001:695 JLINK_WriteReg(R7, 0x00000000)  returns 0x00 (0000ms, 0778ms total)
T2788 001:695 JLINK_WriteReg(R8, 0x00000000)  returns 0x00 (0000ms, 0778ms total)
T2788 001:695 JLINK_WriteReg(R9, 0x20000160)  returns 0x00 (0000ms, 0778ms total)
T2788 001:695 JLINK_WriteReg(R10, 0x00000000)  returns 0x00 (0000ms, 0778ms total)
T2788 001:695 JLINK_WriteReg(R11, 0x00000000)  returns 0x00 (0000ms, 0778ms total)
T2788 001:695 JLINK_WriteReg(R12, 0x00000000)  returns 0x00 (0000ms, 0778ms total)
T2788 001:695 JLINK_WriteReg(R13 (SP), 0x20000800)  returns 0x00 (0000ms, 0778ms total)
T2788 001:695 JLINK_WriteReg(R14, 0x20000001)  returns 0x00 (0001ms, 0779ms total)
T2788 001:696 JLINK_WriteReg(R15 (PC), 0x200000F4)  returns 0x00 (0000ms, 0779ms total)
T2788 001:696 JLINK_WriteReg(XPSR, 0x01000000)  returns 0x00 (0000ms, 0779ms total)
T2788 001:696 JLINK_WriteReg(MSP, 0x20000800)  returns 0x00 (0000ms, 0779ms total)
T2788 001:696 JLINK_WriteReg(PSP, 0x20000800)  returns 0x00 (0000ms, 0779ms total)
T2788 001:696 JLINK_WriteReg(CFBP, 0x00000000)  returns 0x00 (0000ms, 0779ms total)
T2788 001:696 JLINK_SetBPEx(Addr = 0x20000000, Type = 0xFFFFFFF2)  returns 0x0000000C (0000ms, 0779ms total)
T2788 001:696 JLINK_Go() (0002ms, 0781ms total)
T2788 001:698 JLINK_IsHalted()  returns FALSE (0000ms, 0781ms total)
T2788 001:700 JLINK_IsHalted()  returns FALSE (0000ms, 0781ms total)
T2788 001:702 JLINK_IsHalted()  returns FALSE (0000ms, 0781ms total)
T2788 001:704 JLINK_IsHalted()  returns FALSE (0000ms, 0781ms total)
T2788 001:706 JLINK_IsHalted()  returns FALSE (0000ms, 0781ms total)
T2788 001:708 JLINK_IsHalted()  returns FALSE (0000ms, 0781ms total)
T2788 001:710 JLINK_IsHalted()  returns FALSE (0000ms, 0781ms total)
T2788 001:712 JLINK_IsHalted()  returns FALSE (0000ms, 0781ms total)
T2788 001:714 JLINK_IsHalted()  returns FALSE (0001ms, 0782ms total)
T2788 001:717 JLINK_IsHalted()  returns FALSE (0000ms, 0781ms total)
T2788 001:719 JLINK_IsHalted()  returns FALSE (0000ms, 0781ms total)
T2788 001:721 JLINK_IsHalted()  returns FALSE (0000ms, 0781ms total)
T2788 001:723 JLINK_IsHalted()  returns FALSE (0000ms, 0781ms total)
T2788 001:725 JLINK_IsHalted()  returns FALSE (0000ms, 0781ms total)
T2788 001:727 JLINK_IsHalted()  returns FALSE (0000ms, 0781ms total)
T2788 001:729 JLINK_IsHalted() -- CPU_ReadMem(2 bytes @ 0x20000000)  returns TRUE (0004ms, 0785ms total)
T2788 001:733 JLINK_ReadReg(R15 (PC))  returns 0x20000000 (0000ms, 0781ms total)
T2788 001:733 JLINK_ClrBPEx(BPHandle = 0x0000000C)  returns 0x00 (0000ms, 0781ms total)
T2788 001:733 JLINK_ReadReg(R0)  returns 0x00000000 (0000ms, 0781ms total)
T2788 001:734 JLINK_WriteMem(0x20000164, 0x0400 Bytes, ...) - Data: 7F 75 2A 40 4D 89 4F F6 FF 76 06 EA 05 15 2A 43 ... -- CPU_WriteMem(1024 bytes @ 0x20000164)  returns 0x400 (0007ms, 0788ms total)
T2788 001:741 JLINK_WriteReg(R0, 0x08002000)  returns 0x00 (0000ms, 0788ms total)
T2788 001:741 JLINK_WriteReg(R1, 0x00000400)  returns 0x00 (0000ms, 0788ms total)
T2788 001:741 JLINK_WriteReg(R2, 0x20000164)  returns 0x00 (0000ms, 0788ms total)
T2788 001:741 JLINK_WriteReg(R3, 0x00000000)  returns 0x00 (0000ms, 0788ms total)
T2788 001:741 JLINK_WriteReg(R4, 0x00000000)  returns 0x00 (0000ms, 0788ms total)
T2788 001:741 JLINK_WriteReg(R5, 0x00000000)  returns 0x00 (0000ms, 0788ms total)
T2788 001:741 JLINK_WriteReg(R6, 0x00000000)  returns 0x00 (0000ms, 0788ms total)
T2788 001:741 JLINK_WriteReg(R7, 0x00000000)  returns 0x00 (0000ms, 0788ms total)
T2788 001:741 JLINK_WriteReg(R8, 0x00000000)  returns 0x00 (0000ms, 0788ms total)
T2788 001:741 JLINK_WriteReg(R9, 0x20000160)  returns 0x00 (0000ms, 0788ms total)
T2788 001:741 JLINK_WriteReg(R10, 0x00000000)  returns 0x00 (0000ms, 0788ms total)
T2788 001:741 JLINK_WriteReg(R11, 0x00000000)  returns 0x00 (0000ms, 0788ms total)
T2788 001:741 JLINK_WriteReg(R12, 0x00000000)  returns 0x00 (0000ms, 0788ms total)
T2788 001:741 JLINK_WriteReg(R13 (SP), 0x20000800)  returns 0x00 (0001ms, 0789ms total)
T2788 001:742 JLINK_WriteReg(R14, 0x20000001)  returns 0x00 (0000ms, 0789ms total)
T2788 001:742 JLINK_WriteReg(R15 (PC), 0x200000F4)  returns 0x00 (0000ms, 0789ms total)
T2788 001:742 JLINK_WriteReg(XPSR, 0x01000000)  returns 0x00 (0000ms, 0789ms total)
T2788 001:742 JLINK_WriteReg(MSP, 0x20000800)  returns 0x00 (0000ms, 0789ms total)
T2788 001:742 JLINK_WriteReg(PSP, 0x20000800)  returns 0x00 (0000ms, 0789ms total)
T2788 001:742 JLINK_WriteReg(CFBP, 0x00000000)  returns 0x00 (0000ms, 0789ms total)
T2788 001:742 JLINK_SetBPEx(Addr = 0x20000000, Type = 0xFFFFFFF2)  returns 0x0000000D (0000ms, 0789ms total)
T2788 001:742 JLINK_Go() (0002ms, 0791ms total)
T2788 001:744 JLINK_IsHalted()  returns FALSE (0000ms, 0791ms total)
T2788 001:746 JLINK_IsHalted()  returns FALSE (0000ms, 0791ms total)
T2788 001:761 JLINK_IsHalted()  returns FALSE (0000ms, 0791ms total)
T2788 001:763 JLINK_IsHalted()  returns FALSE (0000ms, 0791ms total)
T2788 001:765 JLINK_IsHalted()  returns FALSE (0000ms, 0791ms total)
T2788 001:767 JLINK_IsHalted()  returns FALSE (0000ms, 0791ms total)
T2788 001:769 JLINK_IsHalted()  returns FALSE (0000ms, 0791ms total)
T2788 001:771 JLINK_IsHalted()  returns FALSE (0001ms, 0792ms total)
T2788 001:774 JLINK_IsHalted()  returns FALSE (0000ms, 0791ms total)
T2788 001:776 JLINK_IsHalted() -- CPU_ReadMem(2 bytes @ 0x20000000)  returns TRUE (0003ms, 0794ms total)
T2788 001:779 JLINK_ReadReg(R15 (PC))  returns 0x20000000 (0000ms, 0791ms total)
T2788 001:779 JLINK_ClrBPEx(BPHandle = 0x0000000D)  returns 0x00 (0000ms, 0791ms total)
T2788 001:779 JLINK_ReadReg(R0)  returns 0x00000000 (0000ms, 0791ms total)
T2788 001:780 JLINK_WriteMem(0x20000164, 0x0400 Bytes, ...) - Data: 21 46 03 48 FF F7 85 F9 10 BD 00 00 00 4C 00 40 ... -- CPU_WriteMem(1024 bytes @ 0x20000164)  returns 0x400 (0008ms, 0799ms total)
T2788 001:788 JLINK_WriteReg(R0, 0x08002400)  returns 0x00 (0000ms, 0799ms total)
T2788 001:788 JLINK_WriteReg(R1, 0x00000400)  returns 0x00 (0000ms, 0799ms total)
T2788 001:788 JLINK_WriteReg(R2, 0x20000164)  returns 0x00 (0000ms, 0799ms total)
T2788 001:788 JLINK_WriteReg(R3, 0x00000000)  returns 0x00 (0000ms, 0799ms total)
T2788 001:788 JLINK_WriteReg(R4, 0x00000000)  returns 0x00 (0000ms, 0799ms total)
T2788 001:788 JLINK_WriteReg(R5, 0x00000000)  returns 0x00 (0000ms, 0799ms total)
T2788 001:788 JLINK_WriteReg(R6, 0x00000000)  returns 0x00 (0000ms, 0799ms total)
T2788 001:788 JLINK_WriteReg(R7, 0x00000000)  returns 0x00 (0000ms, 0799ms total)
T2788 001:788 JLINK_WriteReg(R8, 0x00000000)  returns 0x00 (0000ms, 0799ms total)
T2788 001:788 JLINK_WriteReg(R9, 0x20000160)  returns 0x00 (0000ms, 0799ms total)
T2788 001:788 JLINK_WriteReg(R10, 0x00000000)  returns 0x00 (0000ms, 0799ms total)
T2788 001:788 JLINK_WriteReg(R11, 0x00000000)  returns 0x00 (0000ms, 0799ms total)
T2788 001:788 JLINK_WriteReg(R12, 0x00000000)  returns 0x00 (0000ms, 0799ms total)
T2788 001:788 JLINK_WriteReg(R13 (SP), 0x20000800)  returns 0x00 (0000ms, 0799ms total)
T2788 001:788 JLINK_WriteReg(R14, 0x20000001)  returns 0x00 (0000ms, 0799ms total)
T2788 001:788 JLINK_WriteReg(R15 (PC), 0x200000F4)  returns 0x00 (0000ms, 0799ms total)
T2788 001:788 JLINK_WriteReg(XPSR, 0x01000000)  returns 0x00 (0000ms, 0799ms total)
T2788 001:788 JLINK_WriteReg(MSP, 0x20000800)  returns 0x00 (0000ms, 0799ms total)
T2788 001:788 JLINK_WriteReg(PSP, 0x20000800)  returns 0x00 (0000ms, 0799ms total)
T2788 001:788 JLINK_WriteReg(CFBP, 0x00000000)  returns 0x00 (0001ms, 0800ms total)
T2788 001:789 JLINK_SetBPEx(Addr = 0x20000000, Type = 0xFFFFFFF2)  returns 0x0000000E (0000ms, 0800ms total)
T2788 001:789 JLINK_Go() (0002ms, 0802ms total)
T2788 001:791 JLINK_IsHalted()  returns FALSE (0000ms, 0802ms total)
T2788 001:794 JLINK_IsHalted()  returns FALSE (0000ms, 0802ms total)
T2788 001:796 JLINK_IsHalted()  returns FALSE (0000ms, 0802ms total)
T2788 001:798 JLINK_IsHalted()  returns FALSE (0000ms, 0802ms total)
T2788 001:800 JLINK_IsHalted()  returns FALSE (0000ms, 0802ms total)
T2788 001:802 JLINK_IsHalted()  returns FALSE (0000ms, 0802ms total)
T2788 001:804 JLINK_IsHalted()  returns FALSE (0000ms, 0802ms total)
T2788 001:806 JLINK_IsHalted()  returns FALSE (0000ms, 0802ms total)
T2788 001:808 JLINK_IsHalted()  returns FALSE (0000ms, 0802ms total)
T2788 001:810 JLINK_IsHalted()  returns FALSE (0001ms, 0803ms total)
T2788 001:813 JLINK_IsHalted()  returns FALSE (0000ms, 0802ms total)
T2788 001:815 JLINK_IsHalted()  returns FALSE (0001ms, 0803ms total)
T2788 001:818 JLINK_IsHalted()  returns FALSE (0000ms, 0802ms total)
T2788 001:820 JLINK_IsHalted()  returns FALSE (0000ms, 0802ms total)
T2788 001:822 JLINK_IsHalted() -- CPU_ReadMem(2 bytes @ 0x20000000)  returns TRUE (0003ms, 0805ms total)
T2788 001:825 JLINK_ReadReg(R15 (PC))  returns 0x20000000 (0000ms, 0802ms total)
T2788 001:825 JLINK_ClrBPEx(BPHandle = 0x0000000E)  returns 0x00 (0000ms, 0802ms total)
T2788 001:825 JLINK_ReadReg(R0)  returns 0x00000000 (0000ms, 0802ms total)
T2788 001:827 JLINK_WriteMem(0x20000164, 0x0400 Bytes, ...) - Data: 09 10 64 21 B0 FB F1 F0 00 F0 0F 00 04 43 2C 81 ... -- CPU_WriteMem(1024 bytes @ 0x20000164)  returns 0x400 (0007ms, 0809ms total)
T2788 001:834 JLINK_WriteReg(R0, 0x08002800)  returns 0x00 (0000ms, 0809ms total)
T2788 001:834 JLINK_WriteReg(R1, 0x00000400)  returns 0x00 (0000ms, 0809ms total)
T2788 001:834 JLINK_WriteReg(R2, 0x20000164)  returns 0x00 (0000ms, 0809ms total)
T2788 001:834 JLINK_WriteReg(R3, 0x00000000)  returns 0x00 (0000ms, 0809ms total)
T2788 001:834 JLINK_WriteReg(R4, 0x00000000)  returns 0x00 (0000ms, 0809ms total)
T2788 001:834 JLINK_WriteReg(R5, 0x00000000)  returns 0x00 (0000ms, 0809ms total)
